/B<7> (vref=1.2) X,/B<7> (vref=1.2) Y,/B<6> (vref=1.2) X,/B<6> (vref=1.2) Y,/B<5> (vref=1.2) X,/B<5> (vref=1.2) Y,/B<4> (vref=1.2) X,/B<4> (vref=1.2) Y,/B<3> (vref=1.2) X,/B<3> (vref=1.2) Y,/B<2> (vref=1.2) X,/B<2> (vref=1.2) Y,/B<1> (vref=1.2) X,/B<1> (vref=1.2) Y,/VOUT (vref=1.2) X,/VOUT (vref=1.2) Y,/net10 (vref=1.2) X,/net10 (vref=1.2) Y,/B<0> (vref=1.2) X,/B<0> (vref=1.2) Y
0,0,0,0,0,0,0,0,0,0,0,0,0,0,0,2.391070323434037e-07,0,1.2,0,0
2.5e-10,0.3,2.5e-10,0.3,2.5e-10,0.3,2.5e-10,0.3,2.5e-10,0.3,2.5e-10,0.3,2.5e-10,0.3,2.5e-10,2.533915096304025e-07,2.5e-10,1.2,2.5e-10,0.3
3.4375e-10,0.4125,3.4375e-10,0.4125,3.4375e-10,0.4125,3.4375e-10,0.4125,3.4375e-10,0.4125,3.4375e-10,0.4125,3.4375e-10,0.4125,3.4375e-10,-7.593601643066705e-08,3.4375e-10,1.2,3.4375e-10,0.4125
3.90625e-10,0.4687500000000001,3.90625e-10,0.4687500000000001,3.90625e-10,0.4687500000000001,3.90625e-10,0.4687500000000001,3.90625e-10,0.4687500000000001,3.90625e-10,0.4687500000000001,3.90625e-10,0.4687500000000001,3.90625e-10,-4.804486298162528e-07,3.90625e-10,1.2,3.90625e-10,0.4687500000000001
4.84375e-10,0.5812499999999999,4.84375e-10,0.5812499999999999,4.84375e-10,0.5812499999999999,4.84375e-10,0.5812499999999999,4.84375e-10,0.5812499999999999,4.84375e-10,0.5812499999999999,4.84375e-10,0.5812499999999999,4.84375e-10,-4.646553568843282e-06,4.84375e-10,1.2,4.84375e-10,0.5812499999999999
5.853381839679221e-10,0.7024058207615065,5.853381839679221e-10,0.7024058207615065,5.853381839679221e-10,0.7024058207615065,5.853381839679221e-10,0.7024058207615065,5.853381839679221e-10,0.7024058207615065,5.853381839679221e-10,0.7024058207615065,5.853381839679221e-10,0.7024058207615065,5.853381839679221e-10,0.0001234767668542075,5.853381839679221e-10,1.2,5.853381839679221e-10,0.7024058207615065
6.089037462713889e-10,0.7306844955256666,6.089037462713889e-10,0.7306844955256666,6.089037462713889e-10,0.7306844955256666,6.089037462713889e-10,0.7306844955256666,6.089037462713889e-10,0.7306844955256666,6.089037462713889e-10,0.7306844955256666,6.089037462713889e-10,0.7306844955256666,6.089037462713889e-10,0.000480539102645811,6.089037462713889e-10,1.2,6.089037462713889e-10,0.7306844955256666
6.519807219927688e-10,0.7823768663913225,6.519807219927688e-10,0.7823768663913225,6.519807219927688e-10,0.7823768663913225,6.519807219927688e-10,0.7823768663913225,6.519807219927688e-10,0.7823768663913225,6.519807219927688e-10,0.7823768663913225,6.519807219927688e-10,0.7823768663913225,6.519807219927688e-10,0.002215295407802223,6.519807219927688e-10,1.2,6.519807219927688e-10,0.7823768663913225
6.587348428491035e-10,0.7904818114189242,6.587348428491035e-10,0.7904818114189242,6.587348428491035e-10,0.7904818114189242,6.587348428491035e-10,0.7904818114189242,6.587348428491035e-10,0.7904818114189242,6.587348428491035e-10,0.7904818114189242,6.587348428491035e-10,0.7904818114189242,6.587348428491035e-10,0.002654286060087953,6.587348428491035e-10,1.2,6.587348428491035e-10,0.7904818114189242
6.722430845617728e-10,0.8066917014741273,6.722430845617728e-10,0.8066917014741273,6.722430845617728e-10,0.8066917014741273,6.722430845617728e-10,0.8066917014741273,6.722430845617728e-10,0.8066917014741273,6.722430845617728e-10,0.8066917014741273,6.722430845617728e-10,0.8066917014741273,6.722430845617728e-10,0.003604144381481192,6.722430845617728e-10,1.2,6.722430845617728e-10,0.8066917014741273
6.87283866141468e-10,0.8247406393697615,6.87283866141468e-10,0.8247406393697615,6.87283866141468e-10,0.8247406393697615,6.87283866141468e-10,0.8247406393697615,6.87283866141468e-10,0.8247406393697615,6.87283866141468e-10,0.8247406393697615,6.87283866141468e-10,0.8247406393697615,6.87283866141468e-10,0.004692660299943301,6.87283866141468e-10,1.2,6.87283866141468e-10,0.8247406393697615
7.021127786451075e-10,0.8425353343741289,7.021127786451075e-10,0.8425353343741289,7.021127786451075e-10,0.8425353343741289,7.021127786451075e-10,0.8425353343741289,7.021127786451075e-10,0.8425353343741289,7.021127786451075e-10,0.8425353343741289,7.021127786451075e-10,0.8425353343741289,7.021127786451075e-10,0.005782058595513307,7.021127786451075e-10,1.2,7.021127786451075e-10,0.8425353343741289
7.217674447652277e-10,0.8661209337182731,7.217674447652277e-10,0.8661209337182731,7.217674447652277e-10,0.8661209337182731,7.217674447652277e-10,0.8661209337182731,7.217674447652277e-10,0.8661209337182731,7.217674447652277e-10,0.8661209337182731,7.217674447652277e-10,0.8661209337182731,7.217674447652277e-10,0.007230140570548499,7.217674447652277e-10,1.2,7.217674447652277e-10,0.8661209337182731
7.408211769938007e-10,0.8889854123925607,7.408211769938007e-10,0.8889854123925607,7.408211769938007e-10,0.8889854123925607,7.408211769938007e-10,0.8889854123925607,7.408211769938007e-10,0.8889854123925607,7.408211769938007e-10,0.8889854123925607,7.408211769938007e-10,0.8889854123925607,7.408211769938007e-10,0.008637844545932529,7.408211769938007e-10,1.2,7.408211769938007e-10,0.8889854123925607
7.594638772175369e-10,0.9113566526610442,7.594638772175369e-10,0.9113566526610442,7.594638772175369e-10,0.9113566526610442,7.594638772175369e-10,0.9113566526610442,7.594638772175369e-10,0.9113566526610442,7.594638772175369e-10,0.9113566526610442,7.594638772175369e-10,0.9113566526610442,7.594638772175369e-10,0.01001586972826387,7.594638772175369e-10,1.2,7.594638772175369e-10,0.9113566526610442
7.837958507709666e-10,0.9405550209251597,7.837958507709666e-10,0.9405550209251597,7.837958507709666e-10,0.9405550209251597,7.837958507709666e-10,0.9405550209251597,7.837958507709666e-10,0.9405550209251597,7.837958507709666e-10,0.9405550209251597,7.837958507709666e-10,0.9405550209251597,7.837958507709666e-10,0.01181342105202427,7.837958507709666e-10,1.2,7.837958507709666e-10,0.9405550209251597
8.17327551193502e-10,0.9807930614322025,8.17327551193502e-10,0.9807930614322025,8.17327551193502e-10,0.9807930614322025,8.17327551193502e-10,0.9807930614322025,8.17327551193502e-10,0.9807930614322025,8.17327551193502e-10,0.9807930614322025,8.17327551193502e-10,0.9807930614322025,8.17327551193502e-10,0.01428620099669855,8.17327551193502e-10,1.2,8.17327551193502e-10,0.9807930614322025
8.606036570557e-10,1.03272438846684,8.606036570557e-10,1.03272438846684,8.606036570557e-10,1.03272438846684,8.606036570557e-10,1.03272438846684,8.606036570557e-10,1.03272438846684,8.606036570557e-10,1.03272438846684,8.606036570557e-10,1.03272438846684,8.606036570557e-10,0.01747002088535778,8.606036570557e-10,1.2,8.606036570557e-10,1.03272438846684
9.028221413690122e-10,1.083386569642814,9.028221413690122e-10,1.083386569642814,9.028221413690122e-10,1.083386569642814,9.028221413690122e-10,1.083386569642814,9.028221413690122e-10,1.083386569642814,9.028221413690122e-10,1.083386569642814,9.028221413690122e-10,1.083386569642814,9.028221413690122e-10,0.02056776228754882,9.028221413690122e-10,1.2,9.028221413690122e-10,1.083386569642814
9.609653577830845e-10,1.153158429339701,9.609653577830845e-10,1.153158429339701,9.609653577830845e-10,1.153158429339701,9.609653577830845e-10,1.153158429339701,9.609653577830845e-10,1.153158429339701,9.609653577830845e-10,1.153158429339701,9.609653577830845e-10,1.153158429339701,9.609653577830845e-10,0.02482062715854129,9.609653577830845e-10,1.2,9.609653577830845e-10,1.153158429339701
1e-09,1.2,1e-09,1.2,1e-09,1.2,1e-09,1.2,1e-09,1.2,1e-09,1.2,1e-09,1.2,1e-09,0.02766716620351863,1e-09,1.2,1e-09,1.2
1.078069284433831e-09,1.2,1.078069284433831e-09,1.2,1.078069284433831e-09,1.2,1.078069284433831e-09,1.2,1.078069284433831e-09,1.2,1.078069284433831e-09,1.2,1.078069284433831e-09,1.2,1.078069284433831e-09,0.03332571523351263,1.078069284433831e-09,1.2,1.078069284433831e-09,1.2
1.157066953320001e-09,1.2,1.157066953320001e-09,1.2,1.157066953320001e-09,1.2,1.157066953320001e-09,1.2,1.157066953320001e-09,1.2,1.157066953320001e-09,1.2,1.157066953320001e-09,1.2,1.157066953320001e-09,0.03903751337689043,1.157066953320001e-09,1.2,1.157066953320001e-09,1.2
1.222289960967014e-09,1.2,1.222289960967014e-09,1.2,1.222289960967014e-09,1.2,1.222289960967014e-09,1.2,1.222289960967014e-09,1.2,1.222289960967014e-09,1.2,1.222289960967014e-09,1.2,1.222289960967014e-09,0.043732216538745,1.222289960967014e-09,1.2,1.222289960967014e-09,1.2
1.352735976261042e-09,1.2,1.352735976261042e-09,1.2,1.352735976261042e-09,1.2,1.352735976261042e-09,1.2,1.352735976261042e-09,1.2,1.352735976261042e-09,1.2,1.352735976261042e-09,1.2,1.352735976261042e-09,0.05306451768762177,1.352735976261042e-09,1.2,1.352735976261042e-09,1.2
1.613628006849096e-09,1.2,1.613628006849096e-09,1.2,1.613628006849096e-09,1.2,1.613628006849096e-09,1.2,1.613628006849096e-09,1.2,1.613628006849096e-09,1.2,1.613628006849096e-09,1.2,1.613628006849096e-09,0.07150350190613855,1.613628006849096e-09,1.2,1.613628006849096e-09,1.2
2.135412068025206e-09,1.2,2.135412068025206e-09,1.2,2.135412068025206e-09,1.2,2.135412068025206e-09,1.2,2.135412068025206e-09,1.2,2.135412068025206e-09,1.2,2.135412068025206e-09,1.2,2.135412068025206e-09,0.1074949212518612,2.135412068025206e-09,1.2,2.135412068025206e-09,1.2
3.178980190377424e-09,1.2,3.178980190377424e-09,1.2,3.178980190377424e-09,1.2,3.178980190377424e-09,1.2,3.178980190377424e-09,1.2,3.178980190377424e-09,1.2,3.178980190377424e-09,1.2,3.178980190377424e-09,0.1760954574462749,3.178980190377424e-09,1.2,3.178980190377424e-09,1.2
5.266116435081861e-09,1.2,5.266116435081861e-09,1.2,5.266116435081861e-09,1.2,5.266116435081861e-09,1.2,5.266116435081861e-09,1.2,5.266116435081861e-09,1.2,5.266116435081861e-09,1.2,5.266116435081861e-09,0.3006768830641477,5.266116435081861e-09,1.2,5.266116435081861e-09,1.2
9.440388924490734e-09,1.2,9.440388924490734e-09,1.2,9.440388924490734e-09,1.2,9.440388924490734e-09,1.2,9.440388924490734e-09,1.2,9.440388924490734e-09,1.2,9.440388924490734e-09,1.2,9.440388924490734e-09,0.507755240031329,9.440388924490734e-09,1.2,9.440388924490734e-09,1.2
1.778893390330848e-08,1.2,1.778893390330848e-08,1.2,1.778893390330848e-08,1.2,1.778893390330848e-08,1.2,1.778893390330848e-08,1.2,1.778893390330848e-08,1.2,1.778893390330848e-08,1.2,1.778893390330848e-08,0.7918292722620445,1.778893390330848e-08,1.2,1.778893390330848e-08,1.2
2.694397245842806e-08,1.2,2.694397245842806e-08,1.2,2.694397245842806e-08,1.2,2.694397245842806e-08,1.2,2.694397245842806e-08,1.2,2.694397245842806e-08,1.2,2.694397245842806e-08,1.2,2.694397245842806e-08,0.9796571376163499,2.694397245842806e-08,1.2,2.694397245842806e-08,1.2
3.792160554554194e-08,1.2,3.792160554554194e-08,1.2,3.792160554554194e-08,1.2,3.792160554554194e-08,1.2,3.792160554554194e-08,1.2,3.792160554554194e-08,1.2,3.792160554554194e-08,1.2,3.792160554554194e-08,1.089645719260633,3.792160554554194e-08,1.2,3.792160554554194e-08,1.2
5.005738188080207e-08,1.2,5.005738188080207e-08,1.2,5.005738188080207e-08,1.2,5.005738188080207e-08,1.2,5.005738188080207e-08,1.2,5.005738188080207e-08,1.2,5.005738188080207e-08,1.2,5.005738188080207e-08,1.152659454779191,5.005738188080207e-08,1.2,5.005738188080207e-08,1.2
6.444155131282085e-08,1.2,6.444155131282085e-08,1.2,6.444155131282085e-08,1.2,6.444155131282085e-08,1.2,6.444155131282085e-08,1.2,6.444155131282085e-08,1.2,6.444155131282085e-08,1.2,6.444155131282085e-08,1.179051846552586,6.444155131282085e-08,1.2,6.444155131282085e-08,1.2
8.368838420081991e-08,1.2,8.368838420081991e-08,1.2,8.368838420081991e-08,1.2,8.368838420081991e-08,1.2,8.368838420081991e-08,1.2,8.368838420081991e-08,1.2,8.368838420081991e-08,1.2,8.368838420081991e-08,1.193362085731574,8.368838420081991e-08,1.2,8.368838420081991e-08,1.2
1.077967628842263e-07,1.2,1.077967628842263e-07,1.2,1.077967628842263e-07,1.2,1.077967628842263e-07,1.2,1.077967628842263e-07,1.2,1.077967628842263e-07,1.2,1.077967628842263e-07,1.2,1.077967628842263e-07,1.194999151855067,1.077967628842263e-07,1.2,1.077967628842263e-07,1.2
1.457974967258031e-07,1.2,1.457974967258031e-07,1.2,1.457974967258031e-07,1.2,1.457974967258031e-07,1.2,1.457974967258031e-07,1.2,1.457974967258031e-07,1.2,1.457974967258031e-07,1.2,1.457974967258031e-07,1.195556291532512,1.457974967258031e-07,1.2,1.457974967258031e-07,1.2
2.000022363512743e-07,1.2,2.000022363512743e-07,1.2,2.000022363512743e-07,1.2,2.000022363512743e-07,1.2,2.000022363512743e-07,1.2,2.000022363512743e-07,1.2,2.000022363512743e-07,1.2,2.000022363512743e-07,1.195195410690772,2.000022363512743e-07,1.2,2.000022363512743e-07,1.2
3.084117156022168e-07,1.2,3.084117156022168e-07,1.2,3.084117156022168e-07,1.2,3.084117156022168e-07,1.2,3.084117156022168e-07,1.2,3.084117156022168e-07,1.2,3.084117156022168e-07,1.2,3.084117156022168e-07,1.195197442868609,3.084117156022168e-07,1.2,3.084117156022168e-07,1.2
5.252306741041018e-07,1.2,5.252306741041018e-07,1.2,5.252306741041018e-07,1.2,5.252306741041018e-07,1.2,5.252306741041018e-07,1.2,5.252306741041018e-07,1.2,5.252306741041018e-07,1.2,5.252306741041018e-07,1.195322288092712,5.252306741041018e-07,1.2,5.252306741041018e-07,1.2
7.631153370520509e-07,1.2,7.631153370520509e-07,1.2,7.631153370520509e-07,1.2,7.631153370520509e-07,1.2,7.631153370520509e-07,1.2,7.631153370520509e-07,1.2,7.631153370520509e-07,1.2,7.631153370520509e-07,1.19527842719593,7.631153370520509e-07,1.2,7.631153370520509e-07,1.2
1.001e-06,1.2,1.001e-06,1.2,1.001e-06,1.2,1.001e-06,1.2,1.001e-06,1.2,1.001e-06,1.2,1.001e-06,1.2,1.001e-06,1.195261981365,1.001e-06,1.2,1.001e-06,1.2
1.00125e-06,1.2,1.00125e-06,1.2,1.00125e-06,1.2,1.00125e-06,1.2,1.00125e-06,1.2,1.00125e-06,1.2,1.00125e-06,1.2,1.00125e-06,1.19526209049405,1.00125e-06,1.2,1.00125e-06,0.9000000000001045
1.00134375e-06,1.2,1.00134375e-06,1.2,1.00134375e-06,1.2,1.00134375e-06,1.2,1.00134375e-06,1.2,1.00134375e-06,1.2,1.00134375e-06,1.2,1.00134375e-06,1.195262132130898,1.00134375e-06,1.2,1.00134375e-06,0.787500000000112
1.00153125e-06,1.2,1.00153125e-06,1.2,1.00153125e-06,1.2,1.00153125e-06,1.2,1.00153125e-06,1.2,1.00153125e-06,1.2,1.00153125e-06,1.2,1.00153125e-06,1.195262243305139,1.00153125e-06,1.2,1.00153125e-06,0.5625000000001268
1.00158456222414e-06,1.2,1.00158456222414e-06,1.2,1.00158456222414e-06,1.2,1.00158456222414e-06,1.2,1.00158456222414e-06,1.2,1.00158456222414e-06,1.2,1.00158456222414e-06,1.2,1.00158456222414e-06,1.195262290558841,1.00158456222414e-06,1.2,1.00158456222414e-06,0.498525331031611
1.00168767083437e-06,1.2,1.00168767083437e-06,1.2,1.00168767083437e-06,1.2,1.00168767083437e-06,1.2,1.00168767083437e-06,1.2,1.00168767083437e-06,1.2,1.00168767083437e-06,1.2,1.00168767083437e-06,1.195262239712764,1.00168767083437e-06,1.2,1.00168767083437e-06,0.3747949987557183
1.001723909785355e-06,1.2,1.001723909785355e-06,1.2,1.001723909785355e-06,1.2,1.001723909785355e-06,1.2,1.001723909785355e-06,1.2,1.001723909785355e-06,1.2,1.001723909785355e-06,1.2,1.001723909785355e-06,1.195261951963471,1.001723909785355e-06,1.2,1.001723909785355e-06,0.3313082575744603
1.001761557218209e-06,1.2,1.001761557218209e-06,1.2,1.001761557218209e-06,1.2,1.001761557218209e-06,1.2,1.001761557218209e-06,1.2,1.001761557218209e-06,1.2,1.001761557218209e-06,1.2,1.001761557218209e-06,1.195259964444162,1.001761557218209e-06,1.2,1.001761557218209e-06,0.2861313381496133
1.001805560653668e-06,1.2,1.001805560653668e-06,1.2,1.001805560653668e-06,1.2,1.001805560653668e-06,1.2,1.001805560653668e-06,1.2,1.001805560653668e-06,1.2,1.001805560653668e-06,1.2,1.001805560653668e-06,1.195253877774489,1.001805560653668e-06,1.2,1.001805560653668e-06,0.2333272155984827
1.00182052009894e-06,1.2,1.00182052009894e-06,1.2,1.00182052009894e-06,1.2,1.00182052009894e-06,1.2,1.00182052009894e-06,1.2,1.00182052009894e-06,1.2,1.00182052009894e-06,1.2,1.00182052009894e-06,1.195250540906883,1.00182052009894e-06,1.2,1.00182052009894e-06,0.2153758812717818
1.001850438989485e-06,1.2,1.001850438989485e-06,1.2,1.001850438989485e-06,1.2,1.001850438989485e-06,1.2,1.001850438989485e-06,1.2,1.001850438989485e-06,1.2,1.001850438989485e-06,1.2,1.001850438989485e-06,1.195242579999888,1.001850438989485e-06,1.2,1.001850438989485e-06,0.17947321261838
1.001873571851435e-06,1.2,1.001873571851435e-06,1.2,1.001873571851435e-06,1.2,1.001873571851435e-06,1.2,1.001873571851435e-06,1.2,1.001873571851435e-06,1.2,1.001873571851435e-06,1.2,1.001873571851435e-06,1.195236019696417,1.001873571851435e-06,1.2,1.001873571851435e-06,0.1517137782785147
1.001883110017592e-06,1.2,1.001883110017592e-06,1.2,1.001883110017592e-06,1.2,1.001883110017592e-06,1.2,1.001883110017592e-06,1.2,1.001883110017592e-06,1.2,1.001883110017592e-06,1.2,1.001883110017592e-06,1.195233240327729,1.001883110017592e-06,1.2,1.001883110017592e-06,0.1402679788890622
1.001901603826005e-06,1.2,1.001901603826005e-06,1.2,1.001901603826005e-06,1.2,1.001901603826005e-06,1.2,1.001901603826005e-06,1.2,1.001901603826005e-06,1.2,1.001901603826005e-06,1.2,1.001901603826005e-06,1.195227850613398,1.001901603826005e-06,1.2,1.001901603826005e-06,0.1180754087935039
1.001938591442831e-06,1.2,1.001938591442831e-06,1.2,1.001938591442831e-06,1.2,1.001938591442831e-06,1.2,1.001938591442831e-06,1.2,1.001938591442831e-06,1.2,1.001938591442831e-06,1.2,1.001938591442831e-06,1.195217077742539,1.001938591442831e-06,1.2,1.001938591442831e-06,0.07369026860238703
1.001969295721416e-06,1.2,1.001969295721416e-06,1.2,1.001969295721416e-06,1.2,1.001969295721416e-06,1.2,1.001969295721416e-06,1.2,1.001969295721416e-06,1.2,1.001969295721416e-06,1.2,1.001969295721416e-06,1.195208147508802,1.001969295721416e-06,1.2,1.001969295721416e-06,0.03684513430102143
1.002e-06,1.2,1.002e-06,1.2,1.002e-06,1.2,1.002e-06,1.2,1.002e-06,1.2,1.002e-06,1.2,1.002e-06,1.2,1.002e-06,1.195199230269314,1.002e-06,1.2,1.002e-06,0
1.002061408557169e-06,1.2,1.002061408557169e-06,1.2,1.002061408557169e-06,1.2,1.002061408557169e-06,1.2,1.002061408557169e-06,1.2,1.002061408557169e-06,1.2,1.002061408557169e-06,1.2,1.002061408557169e-06,1.195181475089247,1.002061408557169e-06,1.2,1.002061408557169e-06,0
1.002126206584467e-06,1.2,1.002126206584467e-06,1.2,1.002126206584467e-06,1.2,1.002126206584467e-06,1.2,1.002126206584467e-06,1.2,1.002126206584467e-06,1.2,1.002126206584467e-06,1.2,1.002126206584467e-06,1.195162776802701,1.002126206584467e-06,1.2,1.002126206584467e-06,0
1.002182508056358e-06,1.2,1.002182508056358e-06,1.2,1.002182508056358e-06,1.2,1.002182508056358e-06,1.2,1.002182508056358e-06,1.2,1.002182508056358e-06,1.2,1.002182508056358e-06,1.2,1.002182508056358e-06,1.195146590562233,1.002182508056358e-06,1.2,1.002182508056358e-06,0
1.002295111000139e-06,1.2,1.002295111000139e-06,1.2,1.002295111000139e-06,1.2,1.002295111000139e-06,1.2,1.002295111000139e-06,1.2,1.002295111000139e-06,1.2,1.002295111000139e-06,1.2,1.002295111000139e-06,1.195114387254379,1.002295111000139e-06,1.2,1.002295111000139e-06,0
1.002470553334031e-06,1.2,1.002470553334031e-06,1.2,1.002470553334031e-06,1.2,1.002470553334031e-06,1.2,1.002470553334031e-06,1.2,1.002470553334031e-06,1.2,1.002470553334031e-06,1.2,1.002470553334031e-06,1.195064660198451,1.002470553334031e-06,1.2,1.002470553334031e-06,0
1.002767959219592e-06,1.2,1.002767959219592e-06,1.2,1.002767959219592e-06,1.2,1.002767959219592e-06,1.2,1.002767959219592e-06,1.2,1.002767959219592e-06,1.2,1.002767959219592e-06,1.2,1.002767959219592e-06,1.194981596966457,1.002767959219592e-06,1.2,1.002767959219592e-06,0
1.003362770990714e-06,1.2,1.003362770990714e-06,1.2,1.003362770990714e-06,1.2,1.003362770990714e-06,1.2,1.003362770990714e-06,1.2,1.003362770990714e-06,1.2,1.003362770990714e-06,1.2,1.003362770990714e-06,1.19481999290451,1.003362770990714e-06,1.2,1.003362770990714e-06,0
1.004552394532958e-06,1.2,1.004552394532958e-06,1.2,1.004552394532958e-06,1.2,1.004552394532958e-06,1.2,1.004552394532958e-06,1.2,1.004552394532958e-06,1.2,1.004552394532958e-06,1.2,1.004552394532958e-06,1.19451416221168,1.004552394532958e-06,1.2,1.004552394532958e-06,0
1.006931641617445e-06,1.2,1.006931641617445e-06,1.2,1.006931641617445e-06,1.2,1.006931641617445e-06,1.2,1.006931641617445e-06,1.2,1.006931641617445e-06,1.2,1.006931641617445e-06,1.2,1.006931641617445e-06,1.193965019458949,1.006931641617445e-06,1.2,1.006931641617445e-06,0
