/B<7> (Design_Point=1) X,/B<7> (Design_Point=1) Y,/B<6> (Design_Point=1) X,/B<6> (Design_Point=1) Y,/B<5> (Design_Point=1) X,/B<5> (Design_Point=1) Y,/B<4> (Design_Point=1) X,/B<4> (Design_Point=1) Y,/B<3> (Design_Point=1) X,/B<3> (Design_Point=1) Y,/B<2> (Design_Point=1) X,/B<2> (Design_Point=1) Y,/B<1> (Design_Point=1) X,/B<1> (Design_Point=1) Y,/B<0> (Design_Point=1) X,/B<0> (Design_Point=1) Y,/VOUT (Design_Point=1) X,/VOUT (Design_Point=1) Y
0,0,0,0,0,0,0,0,0,0,0,0,0,0,0,0,0,2.039950469534582e-07
2.5e-10,0.3,2.5e-10,0.3,2.5e-10,0.3,2.5e-10,0.3,2.5e-10,0.3,2.5e-10,0.3,2.5e-10,0.3,2.5e-10,0.3,2.5e-10,1.837234254566787e-07
3.4375e-10,0.4125,3.4375e-10,0.4125,3.4375e-10,0.4125,3.4375e-10,0.4125,3.4375e-10,0.4125,3.4375e-10,0.4125,3.4375e-10,0.4125,3.4375e-10,0.4125,3.4375e-10,-6.29583152278866e-07
3.90625e-10,0.4687500000000001,3.90625e-10,0.4687500000000001,3.90625e-10,0.4687500000000001,3.90625e-10,0.4687500000000001,3.90625e-10,0.4687500000000001,3.90625e-10,0.4687500000000001,3.90625e-10,0.4687500000000001,3.90625e-10,0.4687500000000001,3.90625e-10,-1.926687692526131e-06
4.140625e-10,0.496875,4.140625e-10,0.496875,4.140625e-10,0.496875,4.140625e-10,0.496875,4.140625e-10,0.496875,4.140625e-10,0.496875,4.140625e-10,0.496875,4.140625e-10,0.496875,4.140625e-10,-3.415689482463961e-06
4.609375e-10,0.553125,4.609375e-10,0.553125,4.609375e-10,0.553125,4.609375e-10,0.553125,4.609375e-10,0.553125,4.609375e-10,0.553125,4.609375e-10,0.553125,4.609375e-10,0.553125,4.609375e-10,-1.060891400832731e-05
4.746007854565254e-10,0.5695209425478305,4.746007854565254e-10,0.5695209425478305,4.746007854565254e-10,0.5695209425478305,4.746007854565254e-10,0.5695209425478305,4.746007854565254e-10,0.5695209425478305,4.746007854565254e-10,0.5695209425478305,4.746007854565254e-10,0.5695209425478305,4.746007854565254e-10,0.5695209425478305,4.746007854565254e-10,-1.426662814862166e-05
5.019273563695761e-10,0.6023128276434913,5.019273563695761e-10,0.6023128276434913,5.019273563695761e-10,0.6023128276434913,5.019273563695761e-10,0.6023128276434913,5.019273563695761e-10,0.6023128276434913,5.019273563695761e-10,0.6023128276434913,5.019273563695761e-10,0.6023128276434913,5.019273563695761e-10,0.6023128276434913,5.019273563695761e-10,1.460781733032121e-06
5.156526009307115e-10,0.6187831211168537,5.156526009307115e-10,0.6187831211168537,5.156526009307115e-10,0.6187831211168537,5.156526009307115e-10,0.6187831211168537,5.156526009307115e-10,0.6187831211168537,5.156526009307115e-10,0.6187831211168537,5.156526009307115e-10,0.6187831211168537,5.156526009307115e-10,0.6187831211168537,5.156526009307115e-10,0.0001020183847642012
5.393666447278276e-10,0.647239973673393,5.393666447278276e-10,0.647239973673393,5.393666447278276e-10,0.647239973673393,5.393666447278276e-10,0.647239973673393,5.393666447278276e-10,0.647239973673393,5.393666447278276e-10,0.647239973673393,5.393666447278276e-10,0.647239973673393,5.393666447278276e-10,0.647239973673393,5.393666447278276e-10,0.001000590680882797
5.529468048953562e-10,0.6635361658744274,5.529468048953562e-10,0.6635361658744274,5.529468048953562e-10,0.6635361658744274,5.529468048953562e-10,0.6635361658744274,5.529468048953562e-10,0.6635361658744274,5.529468048953562e-10,0.6635361658744274,5.529468048953562e-10,0.6635361658744274,5.529468048953562e-10,0.6635361658744274,5.529468048953562e-10,0.002144409026955117
5.670691164868264e-10,0.6804829397841916,5.670691164868264e-10,0.6804829397841916,5.670691164868264e-10,0.6804829397841916,5.670691164868264e-10,0.6804829397841916,5.670691164868264e-10,0.6804829397841916,5.670691164868264e-10,0.6804829397841916,5.670691164868264e-10,0.6804829397841916,5.670691164868264e-10,0.6804829397841916,5.670691164868264e-10,0.003661066879403364
5.774166410247785e-10,0.6928999692297342,5.774166410247785e-10,0.6928999692297342,5.774166410247785e-10,0.6928999692297342,5.774166410247785e-10,0.6928999692297342,5.774166410247785e-10,0.6928999692297342,5.774166410247785e-10,0.6928999692297342,5.774166410247785e-10,0.6928999692297342,5.774166410247785e-10,0.6928999692297342,5.774166410247785e-10,0.004828281279443861
5.92315355793101e-10,0.7107784269517211,5.92315355793101e-10,0.7107784269517211,5.92315355793101e-10,0.7107784269517211,5.92315355793101e-10,0.7107784269517211,5.92315355793101e-10,0.7107784269517211,5.92315355793101e-10,0.7107784269517211,5.92315355793101e-10,0.7107784269517211,5.92315355793101e-10,0.7107784269517211,5.92315355793101e-10,0.006540711887259454
6.061156488600658e-10,0.7273387786320789,6.061156488600658e-10,0.7273387786320789,6.061156488600658e-10,0.7273387786320789,6.061156488600658e-10,0.7273387786320789,6.061156488600658e-10,0.7273387786320789,6.061156488600658e-10,0.7273387786320789,6.061156488600658e-10,0.7273387786320789,6.061156488600658e-10,0.7273387786320789,6.061156488600658e-10,0.008127336843548072
6.279261994772497e-10,0.7535114393726996,6.279261994772497e-10,0.7535114393726996,6.279261994772497e-10,0.7535114393726996,6.279261994772497e-10,0.7535114393726996,6.279261994772497e-10,0.7535114393726996,6.279261994772497e-10,0.7535114393726996,6.279261994772497e-10,0.7535114393726996,6.279261994772497e-10,0.7535114393726996,6.279261994772497e-10,0.0106353404195992
6.540042290283341e-10,0.7848050748340009,6.540042290283341e-10,0.7848050748340009,6.540042290283341e-10,0.7848050748340009,6.540042290283341e-10,0.7848050748340009,6.540042290283341e-10,0.7848050748340009,6.540042290283341e-10,0.7848050748340009,6.540042290283341e-10,0.7848050748340009,6.540042290283341e-10,0.7848050748340009,6.540042290283341e-10,0.01362892921100325
7.06160288130503e-10,0.8473923457566035,7.06160288130503e-10,0.8473923457566035,7.06160288130503e-10,0.8473923457566035,7.06160288130503e-10,0.8473923457566035,7.06160288130503e-10,0.8473923457566035,7.06160288130503e-10,0.8473923457566035,7.06160288130503e-10,0.8473923457566035,7.06160288130503e-10,0.8473923457566035,7.06160288130503e-10,0.01959503406649155
7.920525065518632e-10,0.9504630078622356,7.920525065518632e-10,0.9504630078622356,7.920525065518632e-10,0.9504630078622356,7.920525065518632e-10,0.9504630078622356,7.920525065518632e-10,0.9504630078622356,7.920525065518632e-10,0.9504630078622356,7.920525065518632e-10,0.9504630078622356,7.920525065518632e-10,0.9504630078622356,7.920525065518632e-10,0.02935604597948717
8.960262532759317e-10,1.075231503931118,8.960262532759317e-10,1.075231503931118,8.960262532759317e-10,1.075231503931118,8.960262532759317e-10,1.075231503931118,8.960262532759317e-10,1.075231503931118,8.960262532759317e-10,1.075231503931118,8.960262532759317e-10,1.075231503931118,8.960262532759317e-10,1.075231503931118,8.960262532759317e-10,0.04106453607645025
1e-09,1.2,1e-09,1.2,1e-09,1.2,1e-09,1.2,1e-09,1.2,1e-09,1.2,1e-09,1.2,1e-09,1.2,1e-09,0.05265579466860423
1.103439816087434e-09,1.2,1.103439816087434e-09,1.2,1.103439816087434e-09,1.2,1.103439816087434e-09,1.2,1.103439816087434e-09,1.2,1.103439816087434e-09,1.2,1.103439816087434e-09,1.2,1.103439816087434e-09,1.2,1.103439816087434e-09,0.06401522309092424
1.219190138772444e-09,1.2,1.219190138772444e-09,1.2,1.219190138772444e-09,1.2,1.219190138772444e-09,1.2,1.219190138772444e-09,1.2,1.219190138772444e-09,1.2,1.219190138772444e-09,1.2,1.219190138772444e-09,1.2,1.219190138772444e-09,0.07665563975345975
1.313914840701096e-09,1.2,1.313914840701096e-09,1.2,1.313914840701096e-09,1.2,1.313914840701096e-09,1.2,1.313914840701096e-09,1.2,1.313914840701096e-09,1.2,1.313914840701096e-09,1.2,1.313914840701096e-09,1.2,1.313914840701096e-09,0.08689501310754738
1.503364244558399e-09,1.2,1.503364244558399e-09,1.2,1.503364244558399e-09,1.2,1.503364244558399e-09,1.2,1.503364244558399e-09,1.2,1.503364244558399e-09,1.2,1.503364244558399e-09,1.2,1.503364244558399e-09,1.2,1.503364244558399e-09,0.107093601308251
1.882263052273006e-09,1.2,1.882263052273006e-09,1.2,1.882263052273006e-09,1.2,1.882263052273006e-09,1.2,1.882263052273006e-09,1.2,1.882263052273006e-09,1.2,1.882263052273006e-09,1.2,1.882263052273006e-09,1.2,1.882263052273006e-09,0.1464007697311486
2.64006066770222e-09,1.2,2.64006066770222e-09,1.2,2.64006066770222e-09,1.2,2.64006066770222e-09,1.2,2.64006066770222e-09,1.2,2.64006066770222e-09,1.2,2.64006066770222e-09,1.2,2.64006066770222e-09,1.2,2.64006066770222e-09,0.2208248975317662
4.155655898560648e-09,1.2,4.155655898560648e-09,1.2,4.155655898560648e-09,1.2,4.155655898560648e-09,1.2,4.155655898560648e-09,1.2,4.155655898560648e-09,1.2,4.155655898560648e-09,1.2,4.155655898560648e-09,1.2,4.155655898560648e-09,0.3545817842365218
7.186846360277505e-09,1.2,7.186846360277505e-09,1.2,7.186846360277505e-09,1.2,7.186846360277505e-09,1.2,7.186846360277505e-09,1.2,7.186846360277505e-09,1.2,7.186846360277505e-09,1.2,7.186846360277505e-09,1.2,7.186846360277505e-09,0.5702370312387357
1.267262022795858e-08,1.2,1.267262022795858e-08,1.2,1.267262022795858e-08,1.2,1.267262022795858e-08,1.2,1.267262022795858e-08,1.2,1.267262022795858e-08,1.2,1.267262022795858e-08,1.2,1.267262022795858e-08,1.2,1.267262022795858e-08,0.8386082169257807
1.897767617265097e-08,1.2,1.897767617265097e-08,1.2,1.897767617265097e-08,1.2,1.897767617265097e-08,1.2,1.897767617265097e-08,1.2,1.897767617265097e-08,1.2,1.897767617265097e-08,1.2,1.897767617265097e-08,1.2,1.897767617265097e-08,1.005638444732498
2.583883661824405e-08,1.2,2.583883661824405e-08,1.2,2.583883661824405e-08,1.2,2.583883661824405e-08,1.2,2.583883661824405e-08,1.2,2.583883661824405e-08,1.2,2.583883661824405e-08,1.2,2.583883661824405e-08,1.2,2.583883661824405e-08,1.106557719427642
3.394929706426066e-08,1.2,3.394929706426066e-08,1.2,3.394929706426066e-08,1.2,3.394929706426066e-08,1.2,3.394929706426066e-08,1.2,3.394929706426066e-08,1.2,3.394929706426066e-08,1.2,3.394929706426066e-08,1.2,3.394929706426066e-08,1.156401292233154
4.404294430594149e-08,1.2,4.404294430594149e-08,1.2,4.404294430594149e-08,1.2,4.404294430594149e-08,1.2,4.404294430594149e-08,1.2,4.404294430594149e-08,1.2,4.404294430594149e-08,1.2,4.404294430594149e-08,1.2,4.404294430594149e-08,1.184788164111348
5.633517241860495e-08,1.2,5.633517241860495e-08,1.2,5.633517241860495e-08,1.2,5.633517241860495e-08,1.2,5.633517241860495e-08,1.2,5.633517241860495e-08,1.2,5.633517241860495e-08,1.2,5.633517241860495e-08,1.2,5.633517241860495e-08,1.192204454397229
7.421437985251049e-08,1.2,7.421437985251049e-08,1.2,7.421437985251049e-08,1.2,7.421437985251049e-08,1.2,7.421437985251049e-08,1.2,7.421437985251049e-08,1.2,7.421437985251049e-08,1.2,7.421437985251049e-08,1.2,7.421437985251049e-08,1.195428251698782
9.814510782692472e-08,1.2,9.814510782692472e-08,1.2,9.814510782692472e-08,1.2,9.814510782692472e-08,1.2,9.814510782692472e-08,1.2,9.814510782692472e-08,1.2,9.814510782692472e-08,1.2,9.814510782692472e-08,1.2,9.814510782692472e-08,1.194648032205198
1.445516241652703e-07,1.2,1.445516241652703e-07,1.2,1.445516241652703e-07,1.2,1.445516241652703e-07,1.2,1.445516241652703e-07,1.2,1.445516241652703e-07,1.2,1.445516241652703e-07,1.2,1.445516241652703e-07,1.2,1.445516241652703e-07,1.194526453576661
2.217795908761822e-07,1.2,2.217795908761822e-07,1.2,2.217795908761822e-07,1.2,2.217795908761822e-07,1.2,2.217795908761822e-07,1.2,2.217795908761822e-07,1.2,2.217795908761822e-07,1.2,2.217795908761822e-07,1.2,2.217795908761822e-07,1.194804850531613
3.76235524298006e-07,1.2,3.76235524298006e-07,1.2,3.76235524298006e-07,1.2,3.76235524298006e-07,1.2,3.76235524298006e-07,1.2,3.76235524298006e-07,1.2,3.76235524298006e-07,1.2,3.76235524298006e-07,1.2,3.76235524298006e-07,1.194735186029281
6.851473911416536e-07,1.2,6.851473911416536e-07,1.2,6.851473911416536e-07,1.2,6.851473911416536e-07,1.2,6.851473911416536e-07,1.2,6.851473911416536e-07,1.2,6.851473911416536e-07,1.2,6.851473911416536e-07,1.2,6.851473911416536e-07,1.194674327379281
1.001e-06,1.2,1.001e-06,1.2,1.001e-06,1.2,1.001e-06,1.2,1.001e-06,1.2,1.001e-06,1.2,1.001e-06,1.2,1.001e-06,1.2,1.001e-06,1.194700423803369
1.00125e-06,1.2,1.00125e-06,1.2,1.00125e-06,1.2,1.00125e-06,1.2,1.00125e-06,1.2,1.00125e-06,1.2,1.00125e-06,1.2,1.00125e-06,0.9000000000001045,1.00125e-06,1.194700478520158
1.00134375e-06,1.2,1.00134375e-06,1.2,1.00134375e-06,1.2,1.00134375e-06,1.2,1.00134375e-06,1.2,1.00134375e-06,1.2,1.00134375e-06,1.2,1.00134375e-06,0.787500000000112,1.00134375e-06,1.194700500608443
1.001390625e-06,1.2,1.001390625e-06,1.2,1.001390625e-06,1.2,1.001390625e-06,1.2,1.001390625e-06,1.2,1.001390625e-06,1.2,1.001390625e-06,1.2,1.001390625e-06,0.7312499999999886,1.001390625e-06,1.194700513193506
1.001484375e-06,1.2,1.001484375e-06,1.2,1.001484375e-06,1.2,1.001484375e-06,1.2,1.001484375e-06,1.2,1.001484375e-06,1.2,1.001484375e-06,1.2,1.001484375e-06,0.618749999999742,1.001484375e-06,1.19470054701123
1.0015168539033e-06,1.2,1.0015168539033e-06,1.2,1.0015168539033e-06,1.2,1.0015168539033e-06,1.2,1.0015168539033e-06,1.2,1.0015168539033e-06,1.2,1.0015168539033e-06,1.2,1.0015168539033e-06,0.5797753160405765,1.0015168539033e-06,1.194700577597686
1.001533093354949e-06,1.2,1.001533093354949e-06,1.2,1.001533093354949e-06,1.2,1.001533093354949e-06,1.2,1.001533093354949e-06,1.2,1.001533093354949e-06,1.2,1.001533093354949e-06,1.2,1.001533093354949e-06,0.5602879740608667,1.001533093354949e-06,1.194700603013215
1.001565572258249e-06,1.2,1.001565572258249e-06,1.2,1.001565572258249e-06,1.2,1.001565572258249e-06,1.2,1.001565572258249e-06,1.2,1.001565572258249e-06,1.2,1.001565572258249e-06,1.2,1.001565572258249e-06,0.5213132901014472,1.001565572258249e-06,1.194700548430795
1.001579407001681e-06,1.2,1.001579407001681e-06,1.2,1.001579407001681e-06,1.2,1.001579407001681e-06,1.2,1.001579407001681e-06,1.2,1.001579407001681e-06,1.2,1.001579407001681e-06,1.2,1.001579407001681e-06,0.504711597982635,1.001579407001681e-06,1.194700343769316
1.001593281145735e-06,1.2,1.001593281145735e-06,1.2,1.001593281145735e-06,1.2,1.001593281145735e-06,1.2,1.001593281145735e-06,1.2,1.001593281145735e-06,1.2,1.001593281145735e-06,1.2,1.001593281145735e-06,0.4880626251183724,1.001593281145735e-06,1.19469916422498
1.001609845376611e-06,1.2,1.001609845376611e-06,1.2,1.001609845376611e-06,1.2,1.001609845376611e-06,1.2,1.001609845376611e-06,1.2,1.001609845376611e-06,1.2,1.001609845376611e-06,1.2,1.001609845376611e-06,0.468185548067258,1.001609845376611e-06,1.194695378104698
1.001617561487517e-06,1.2,1.001617561487517e-06,1.2,1.001617561487517e-06,1.2,1.001617561487517e-06,1.2,1.001617561487517e-06,1.2,1.001617561487517e-06,1.2,1.001617561487517e-06,1.2,1.001617561487517e-06,0.4589262149797021,1.001617561487517e-06,1.194692362618789
1.001630995269927e-06,1.2,1.001630995269927e-06,1.2,1.001630995269927e-06,1.2,1.001630995269927e-06,1.2,1.001630995269927e-06,1.2,1.001630995269927e-06,1.2,1.001630995269927e-06,1.2,1.001630995269927e-06,0.4428056760879938,1.001630995269927e-06,1.194686071473005
1.001632971561566e-06,1.2,1.001632971561566e-06,1.2,1.001632971561566e-06,1.2,1.001632971561566e-06,1.2,1.001632971561566e-06,1.2,1.001632971561566e-06,1.2,1.001632971561566e-06,1.2,1.001632971561566e-06,0.4404341261207845,1.001632971561566e-06,1.194685101440522
1.001636924144845e-06,1.2,1.001636924144845e-06,1.2,1.001636924144845e-06,1.2,1.001636924144845e-06,1.2,1.001636924144845e-06,1.2,1.001636924144845e-06,1.2,1.001636924144845e-06,1.2,1.001636924144845e-06,0.4356910261863657,1.001636924144845e-06,1.19468315258429
1.001644829311402e-06,1.2,1.001644829311402e-06,1.2,1.001644829311402e-06,1.2,1.001644829311402e-06,1.2,1.001644829311402e-06,1.2,1.001644829311402e-06,1.2,1.001644829311402e-06,1.2,1.001644829311402e-06,0.4262048263175283,1.001644829311402e-06,1.194679255705923
1.001660639644517e-06,1.2,1.001660639644517e-06,1.2,1.001660639644517e-06,1.2,1.001660639644517e-06,1.2,1.001660639644517e-06,1.2,1.001660639644517e-06,1.2,1.001660639644517e-06,1.2,1.001660639644517e-06,0.4072324265798537,1.001660639644517e-06,1.194671451755724
1.001678777909222e-06,1.2,1.001678777909222e-06,1.2,1.001678777909222e-06,1.2,1.001678777909222e-06,1.2,1.001678777909222e-06,1.2,1.001678777909222e-06,1.2,1.001678777909222e-06,1.2,1.001678777909222e-06,0.3854665089341863,1.001678777909222e-06,1.194662492232001
1.001709499113706e-06,1.2,1.001709499113706e-06,1.2,1.001709499113706e-06,1.2,1.001709499113706e-06,1.2,1.001709499113706e-06,1.2,1.001709499113706e-06,1.2,1.001709499113706e-06,1.2,1.001709499113706e-06,0.3486010635532915,1.001709499113706e-06,1.19464732961254
1.001735408974662e-06,1.2,1.001735408974662e-06,1.2,1.001735408974662e-06,1.2,1.001735408974662e-06,1.2,1.001735408974662e-06,1.2,1.001735408974662e-06,1.2,1.001735408974662e-06,1.2,1.001735408974662e-06,0.3175092304051835,1.001735408974662e-06,1.194634574173227
1.001774706347171e-06,1.2,1.001774706347171e-06,1.2,1.001774706347171e-06,1.2,1.001774706347171e-06,1.2,1.001774706347171e-06,1.2,1.001774706347171e-06,1.2,1.001774706347171e-06,1.2,1.001774706347171e-06,0.2703523833944712,1.001774706347171e-06,1.194615287919873
1.00184262419636e-06,1.2,1.00184262419636e-06,1.2,1.00184262419636e-06,1.2,1.00184262419636e-06,1.2,1.00184262419636e-06,1.2,1.00184262419636e-06,1.2,1.00184262419636e-06,1.2,1.00184262419636e-06,0.1888509643678562,1.00184262419636e-06,1.194582127765856
1.00192131209818e-06,1.2,1.00192131209818e-06,1.2,1.00192131209818e-06,1.2,1.00192131209818e-06,1.2,1.00192131209818e-06,1.2,1.00192131209818e-06,1.2,1.00192131209818e-06,1.2,1.00192131209818e-06,0.09442548218388325,1.00192131209818e-06,1.194543981538987
1.002e-06,1.2,1.002e-06,1.2,1.002e-06,1.2,1.002e-06,1.2,1.002e-06,1.2,1.002e-06,1.2,1.002e-06,1.2,1.002e-06,0,1.002e-06,1.194506125557736
1.002089987244934e-06,1.2,1.002089987244934e-06,1.2,1.002089987244934e-06,1.2,1.002089987244934e-06,1.2,1.002089987244934e-06,1.2,1.002089987244934e-06,1.2,1.002089987244934e-06,1.2,1.002089987244934e-06,0,1.002089987244934e-06,1.194463373510236
1.002190049944986e-06,1.2,1.002190049944986e-06,1.2,1.002190049944986e-06,1.2,1.002190049944986e-06,1.2,1.002190049944986e-06,1.2,1.002190049944986e-06,1.2,1.002190049944986e-06,1.2,1.002190049944986e-06,0,1.002190049944986e-06,1.194416064503973
1.002273112453629e-06,1.2,1.002273112453629e-06,1.2,1.002273112453629e-06,1.2,1.002273112453629e-06,1.2,1.002273112453629e-06,1.2,1.002273112453629e-06,1.2,1.002273112453629e-06,1.2,1.002273112453629e-06,0,1.002273112453629e-06,1.194377140617363
1.002439237470915e-06,1.2,1.002439237470915e-06,1.2,1.002439237470915e-06,1.2,1.002439237470915e-06,1.2,1.002439237470915e-06,1.2,1.002439237470915e-06,1.2,1.002439237470915e-06,1.2,1.002439237470915e-06,0,1.002439237470915e-06,1.194300229226577
1.002771487505487e-06,1.2,1.002771487505487e-06,1.2,1.002771487505487e-06,1.2,1.002771487505487e-06,1.2,1.002771487505487e-06,1.2,1.002771487505487e-06,1.2,1.002771487505487e-06,1.2,1.002771487505487e-06,0,1.002771487505487e-06,1.194150061711779
1.003435987574632e-06,1.2,1.003435987574632e-06,1.2,1.003435987574632e-06,1.2,1.003435987574632e-06,1.2,1.003435987574632e-06,1.2,1.003435987574632e-06,1.2,1.003435987574632e-06,1.2,1.003435987574632e-06,0,1.003435987574632e-06,1.193863844445128
1.00476498771292e-06,1.2,1.00476498771292e-06,1.2,1.00476498771292e-06,1.2,1.00476498771292e-06,1.2,1.00476498771292e-06,1.2,1.00476498771292e-06,1.2,1.00476498771292e-06,1.2,1.00476498771292e-06,0,1.00476498771292e-06,1.193342884557103
1.007422987989498e-06,1.2,1.007422987989498e-06,1.2,1.007422987989498e-06,1.2,1.007422987989498e-06,1.2,1.007422987989498e-06,1.2,1.007422987989498e-06,1.2,1.007422987989498e-06,1.2,1.007422987989498e-06,0,1.007422987989498e-06,1.192480950824271
1.012738988542653e-06,1.2,1.012738988542653e-06,1.2,1.012738988542653e-06,1.2,1.012738988542653e-06,1.2,1.012738988542653e-06,1.2,1.012738988542653e-06,1.2,1.012738988542653e-06,1.2,1.012738988542653e-06,0,1.012738988542653e-06,1.191267075733795
1.023370989648963e-06,1.2,1.023370989648963e-06,1.2,1.023370989648963e-06,1.2,1.023370989648963e-06,1.2,1.023370989648963e-06,1.2,1.023370989648963e-06,1.2,1.023370989648963e-06,1.2,1.023370989648963e-06,0,1.023370989648963e-06,1.190114775902492
