/PHI_1 (pulse_width=5e-07) X,/PHI_1 (pulse_width=5e-07) Y,/VIN (pulse_width=5e-07) X,/VIN (pulse_width=5e-07) Y,/SH_OUT (pulse_width=5e-07) X,/SH_OUT (pulse_width=5e-07) Y
0,0,0,0.6,0,0.5999999969904894
4.375927673712729e-12,0,4.375927673712729e-12,0.6000082484293392,4.375927673712729e-12,0.6000000147283202
4.859373547133116e-12,0,4.859373547133116e-12,0.6000091597033417,4.859373547133116e-12,0.60000001642288
5.64019934509035e-12,0,5.64019934509035e-12,0.6000106315252958,5.64019934509035e-12,0.6000000188979222
6.489408610635944e-12,0,6.489408610635944e-12,0.6000122322470495,6.489408610635944e-12,0.600000021249472
7.527257157260071e-12,0,7.527257157260071e-12,0.6000141885454708,7.527257157260071e-12,0.6000000241053594
8.654723648043329e-12,0,8.654723648043329e-12,0.6000163137697369,8.654723648043329e-12,0.6000000273227322
1.024707969768007e-11,0,1.024707969768007e-11,0.600019315290176,1.024707969768007e-11,0.6000000321034733
1.343179179695355e-11,0,1.343179179695355e-11,0.6000253183310528,1.343179179695355e-11,0.6000000425187287
1.80394338745644e-11,0,1.80394338745644e-11,0.600034003531743,1.80394338745644e-11,0.6000000595926247
2.660505553613168e-11,0,2.660505553613168e-11,0.600050149348154,2.660505553613168e-11,0.600000097630185
3.835028221540995e-11,0,3.835028221540995e-11,0.6000722885787477,3.835028221540995e-11,0.6000001630708475
5.628016935518543e-11,0,5.628016935518543e-11,0.6001060856194007,5.628016935518543e-11,0.6000002925523887
7.866422787038115e-11,0,7.866422787038115e-11,0.6001482785747174,7.866422787038115e-11,0.6000005042865778
1.167104593852032e-10,0,1.167104593852032e-10,0.6002199940281517,1.167104593852032e-10,0.6000009915358486
1.80052078939353e-10,0,1.80052078939353e-10,0.6003393901549771,1.80052078939353e-10,0.6000021574656369
3.067353180476527e-10,0,3.067353180476527e-10,0.600578182363582,3.067353180476527e-10,0.6000058117078709
5.601017962642519e-10,0,5.601017962642519e-10,0.601055766468227,5.601017962642519e-10,0.6000183539424622
1.06683475269745e-09,0,1.06683475269745e-09,0.6020109323682105,1.06683475269745e-09,0.6000639345552484
2.080300665563848e-09,0,2.080300665563848e-09,0.6039212464585985,2.080300665563848e-09,0.6002336845950679
3.925132253735319e-09,0,3.925132253735319e-09,0.6073985124881993,3.925132253735319e-09,0.6007913885562892
6.187288083429007e-09,0,6.187288083429007e-09,0.6116620288566258,6.187288083429007e-09,0.6018677393511923
8.840967955350573e-09,0,8.840967955350573e-09,0.6166626894308301,8.840967955350573e-09,0.6036030211625981
1.188026381716428e-08,0,1.188026381716428e-08,0.6223885709841023,1.188026381716428e-08,0.6061130268296419
1.532477248825204e-08,0,1.532477248825204e-08,0.6288753577277469,1.532477248825204e-08,0.6095047858058507
1.918682055283579e-08,0,1.918682055283579e-08,0.6361444079415686,1.918682055283579e-08,0.6138542485881809
2.348195878867701e-08,0,2.348195878867701e-08,0.6442223135039026,2.348195878867701e-08,0.6192156424889768
2.827840296946097e-08,0,2.827840296946097e-08,0.6532334459428553,2.827840296946097e-08,0.6256968715504951
3.366694186368605e-08,0,3.366694186368605e-08,0.6633424358293573,3.366694186368605e-08,0.633443304765146
3.977848381170662e-08,0,3.977848381170662e-08,0.6747856662767354,3.977848381170662e-08,0.6426746001302178
4.678827680540262e-08,0,4.678827680540262e-08,0.6878765813462239,4.678827680540262e-08,0.6537082884703298
5.489761157620794e-08,0,5.489761157620794e-08,0.702967331067025,5.489761157620794e-08,0.6669508444797919
6.425639534832918e-08,0,6.425639534832918e-08,0.7202995073014968,6.425639534832918e-08,0.6827859855357168
7.521513800088467e-08,0,7.521513800088467e-08,0.7404615071654432,7.521513800088467e-08,0.7020164663711441
8.857945962047911e-08,0,8.857945962047911e-08,0.7648216695270026,8.857945962047911e-08,0.7263682318910526
1.050056057001335e-07,0,1.050056057001335e-07,0.7943604476957353,1.050056057001335e-07,0.7573244081720227
1.239994856127957e-07,0,1.239994856127957e-07,0.8278665603606641,1.239994856127957e-07,0.7937547172285884
1.441536738830679e-07,0,1.441536738830679e-07,0.8625299587367952,1.441536738830679e-07,0.8320915586830295
1.62798905264625e-07,0,1.62798905264625e-07,0.8936642000157681,1.62798905264625e-07,0.8665116211944668
1.804825519523198e-07,0,1.804825519523198e-07,0.9222636986563921,1.804825519523198e-07,0.8978728079378394
2.000705809498738e-07,0,2.000705809498738e-07,0.9527787759081917,2.000705809498738e-07,0.931016488672218
2.25916148759293e-07,0,2.25916148759293e-07,0.990980358063444,2.25916148759293e-07,0.9721243228625065
2.664271553564691e-07,0,2.664271553564691e-07,1.045584677910215,2.664271553564691e-07,1.03041957706229
3.425714727752019e-07,0,3.425714727752019e-07,1.128101939743853,3.425714727752019e-07,1.11836761731156
4.205407770666921e-07,0,4.205407770666921e-07,1.181402557616575,4.205407770666921e-07,1.176423362586159
5.230472576925616e-07,0,5.230472576925616e-07,1.198427937620295,5.230472576925616e-07,1.199178004169828
5.991755296366731e-07,0,5.991755296366731e-07,1.171112235312328,5.991755296366731e-07,1.176117926264932
6.856448188090668e-07,0,6.856448188090668e-07,1.100816075877554,6.856448188090668e-07,1.110935871366557
7.597909816458707e-07,0,7.597909816458707e-07,1.011015381565126,7.597909816458707e-07,1.026140909644984
8.357471866240958e-07,0,8.357471866240958e-07,0.8960509907351375,8.357471866240958e-07,0.9178954714378044
8.850569006012221e-07,0,8.850569006012221e-07,0.81198457173042,8.850569006012221e-07,0.8397151564287488
9.155325133512386e-07,0,9.155325133512386e-07,0.7573554208469855,9.155325133512386e-07,0.7896589865663489
9.349563644486985e-07,0,9.349563644486985e-07,0.7217529182006522,9.349563644486985e-07,0.7571362475415543
9.573933778323422e-07,0,9.573933778323422e-07,0.6800719879270677,9.573933778323422e-07,0.7184322787676023
9.744679185782885e-07,0,9.744679185782885e-07,0.6480752492938657,9.744679185782885e-07,0.6875035276826418
9.909732304514258e-07,0,9.909732304514258e-07,0.6170127792441643,9.909732304514258e-07,0.6556987002221435
1.000467662327095e-06,0,1.000467662327095e-06,0.5991184775984392,1.000467662327095e-06,0.6364395998886566
1.013116317698697e-06,0,1.013116317698697e-06,0.5752833195849014,1.013116317698697e-06,0.609826983082549
1.024108882013267e-06,0,1.024108882013267e-06,0.5545992646725159,1.024108882013267e-06,0.5860802324749603
1.035269097246032e-06,0,1.035269097246032e-06,0.5336552637974836,1.035269097246032e-06,0.5617596894881328
1.049221717753856e-06,0,1.049221717753856e-06,0.5075885660228284,1.049221717753856e-06,0.5315708728629925
1.070062716574629e-06,0,1.070062716574629e-06,0.4689986868165282,1.070062716574629e-06,0.4877771812913974
1.084669408020229e-06,0,1.084669408020229e-06,0.4422773204151997,1.084669408020229e-06,0.4582588039043068
1.09883851126068e-06,0,1.09883851126068e-06,0.4166732331375641,1.09883851126068e-06,0.4305510602229071
1.114211477094869e-06,0,1.114211477094869e-06,0.3893061221943624,1.114211477094869e-06,0.4014126234747432
1.136175128124443e-06,0,1.136175128124443e-06,0.3510742551155707,1.136175128124443e-06,0.3612799564202271
1.16804675849301e-06,0,1.16804675849301e-06,0.2977499380708671,1.16804675849301e-06,0.306002448092552
1.201352309093041e-06,0,1.201352309093041e-06,0.2452698187208158,1.201352309093041e-06,0.2520493427597688
1.25087610330129e-06,0,1.25087610330129e-06,0.1745698124414057,1.25087610330129e-06,0.1797325788312129
1.311658699128541e-06,0,1.311658699128541e-06,0.1020010055689145,1.311658699128541e-06,0.1056447849234965
1.419489319089146e-06,0,1.419489319089146e-06,0.01909024272430193,1.419489319089146e-06,0.02060652134807727
1.508372766945297e-06,0,1.508372766945297e-06,0.0002075553657495677,1.508372766945297e-06,9.396440403730437e-05
1.56857676929324e-06,0,1.56857676929324e-06,0.01387057916227219,1.56857676929324e-06,0.01272429051737369
1.629268188089435e-06,0,1.629268188089435e-06,0.04880084146383412,1.629268188089435e-06,0.04650465911765132
1.699548076774673e-06,0,1.699548076774673e-06,0.1140895848374038,1.699548076774673e-06,0.1103740611974047
1.753297435687551e-06,0,1.753297435687551e-06,0.1801536532333011,1.753297435687551e-06,0.1751273478756826
1.855153889737798e-06,0,1.855153889737798e-06,0.3362970245627823,1.855153889737798e-06,0.3274254464370345
1.903203004327532e-06,0,1.903203004327532e-06,0.4203411168258031,1.903203004327532e-06,0.4084880866114279
1.949763461427198e-06,0,1.949763461427198e-06,0.5056989715605898,1.949763461427198e-06,0.4884576722242665
1.974881730713599e-06,0,1.974881730713599e-06,0.552702300691106,1.974881730713599e-06,0.5314769312319819
1.987440865356799e-06,0,1.987440865356799e-06,0.5763327307116833,1.987440865356799e-06,0.552697278553382
2e-06,0,2e-06,0.5999999999999999,2e-06,0.5737560350774439
2.0000625e-06,0.07500000000016445,2.0000625e-06,0.6001178097237519,2.0000625e-06,0.5738781410738698
2.000116002822502e-06,0.1392033870024708,2.000116002822502e-06,0.6002186601641406,2.000116002822502e-06,0.573974006613709
2.000130339816541e-06,0.1564077798495565,2.000130339816541e-06,0.6002456847592038,2.000130339816541e-06,0.5739989224761347
2.000147188305976e-06,0.1766259671713463,2.000147188305976e-06,0.6002774434105617,2.000147188305976e-06,0.5740279944305589
2.000162993680419e-06,0.1955924165032442,2.000162993680419e-06,0.6003072358359653,2.000162993680419e-06,0.5740551278256896
2.000174446219426e-06,0.2093354633110308,2.000174446219426e-06,0.6003288233603763,2.000174446219426e-06,0.5740747262419733
2.000185095935986e-06,0.2221151231827752,2.000185095935986e-06,0.6003488975999581,2.000185095935986e-06,0.5740929071382805
2.000193997381543e-06,0.2327968578518191,2.000193997381543e-06,0.6003656764265645,2.000193997381543e-06,0.5741080833693987
2.000201514999234e-06,0.2418179990812717,2.000201514999234e-06,0.6003798467993366,2.000201514999234e-06,0.5741208715020252
2.000208013959788e-06,0.2496167517451311,2.000208013959788e-06,0.600392097048839,2.000208013959788e-06,0.5741319229558044
2.000213536926299e-06,0.2562443115594598,2.000213536926299e-06,0.600402507593169,2.000213536926299e-06,0.5741412898121786
2.000218271394723e-06,0.2619256736678273,2.000218271394723e-06,0.600411431853847,2.000218271394723e-06,0.5741493235315666
2.000222336519496e-06,0.2668038233952498,2.000222336519496e-06,0.600419094431685,2.000222336519496e-06,0.5741561991021894
2.000225827964916e-06,0.2709935578997131,2.000225827964916e-06,0.6004256756496245,2.000225827964916e-06,0.5741621128086004
2.000228838015358e-06,0.2746056184298469,2.000228838015358e-06,0.6004313494595906,2.000228838015358e-06,0.5741671913416492
2.000231439403186e-06,0.2777272838229661,2.000231439403186e-06,0.6004362529588416,2.000231439403186e-06,0.5741715908820193
2.000233695111626e-06,0.2804341339509198,2.000233695111626e-06,0.600440504867945,2.000233695111626e-06,0.5741753883200402
2.000235659170427e-06,0.2827910045130784,2.000235659170427e-06,0.6004442070305603,2.000235659170427e-06,0.5741787061469924
2.000237377068706e-06,0.2848524824469308,2.000237377068706e-06,0.6004474451916327,2.000237377068706e-06,0.574181592432505
2.000238887896994e-06,0.2866654763928808,2.000238887896994e-06,0.6004502930350667,2.000238887896994e-06,0.5741841425506459
2.000240225070194e-06,0.2882700842325068,2.000240225070194e-06,0.6004528135464532,2.000240225070194e-06,0.5741863850736098
2.000241417303736e-06,0.2897007644827814,2.000241417303736e-06,0.6004550608530916,2.000241417303736e-06,0.5741883963130512
2.000242489453781e-06,0.2909873445370063,2.000242489453781e-06,0.6004570818077313,2.000242489453781e-06,0.5741901915160003
2.00024346319532e-06,0.2921558343846317,2.00024346319532e-06,0.6004589172667574,2.00024346319532e-06,0.5741918332676058
2.000244357660048e-06,0.2932291920573128,2.000244357660048e-06,0.6004606032925517,2.000244357660048e-06,0.5741933292783983
2.000245190018282e-06,0.2942280219381173,2.000245190018282e-06,0.6004621722503956,2.000245190018282e-06,0.5741947313484245
2.000245976019721e-06,0.2951712236656743,2.000245976019721e-06,0.6004636538277633,2.000245976019721e-06,0.5741960454594534
2.000246730537472e-06,0.2960766449663527,2.000246730537472e-06,0.6004650760597914,2.000246730537472e-06,0.5741973144403062
2.00024746812572e-06,0.2969617508638222,2.00024746812572e-06,0.6004664663804653,2.00024746812572e-06,0.5741985479462166
2.000248203633616e-06,0.2978443603395415,2.000248203633616e-06,0.6004678527797671,2.000248203633616e-06,0.5741997826061116
2.00024895290801e-06,0.2987434896126723,2.00024895290801e-06,0.6004692651282958,2.00024895290801e-06,0.5742010360601533
2.00024973363867e-06,0.2996803664044353,2.00024973363867e-06,0.600470736770468,2.00024973363867e-06,0.5742023443843872
2.000250566401226e-06,0.3006796814714719,2.000250566401226e-06,0.6004723064904196,2.000250566401226e-06,0.5742037372722882
2.000251450443969e-06,0.301740532762826,2.000251450443969e-06,0.6004739728712128,2.000251450443969e-06,0.5742052166861542
2.000252380049562e-06,0.3028560594747637,2.000252380049562e-06,0.6004757251359261,2.000252380049562e-06,0.5742067704345698
2.000253363676509e-06,0.3040364118106147,2.000253363676509e-06,0.6004775792284541,2.000253363676509e-06,0.5742084144398484
2.000254403090572e-06,0.3052837086859773,2.000254403090572e-06,0.6004795384771815,2.000254403090572e-06,0.5742101499131965
2.000255502661501e-06,0.306603193801121,2.000255502661501e-06,0.600481611118889,2.000255502661501e-06,0.5742119851946476
2.00025662675122e-06,0.3079521014642402,2.00025662675122e-06,0.6004837299774056,2.00025662675122e-06,0.5742138596819255
2.000257768011126e-06,0.3093216133508462,2.000257768011126e-06,0.6004858812009448,2.000257768011126e-06,0.5742157615979218
2.000258913954264e-06,0.3106967451169124,2.000258913954264e-06,0.6004880412521595,2.000258913954264e-06,0.574217669925693
2.000260051673189e-06,0.312062007826316,2.000260051673189e-06,0.6004901858010957,2.000260051673189e-06,0.5742195626737853
2.000261173490556e-06,0.3134081886672695,2.000261173490556e-06,0.6004923003763072,2.000261173490556e-06,0.5742214282826191
2.0002622713907e-06,0.3147256688401805,2.0002622713907e-06,0.6004943698686241,2.0002622713907e-06,0.5742232513500832
2.000263339274074e-06,0.3160071288887286,2.000263339274074e-06,0.6004963827806759,2.000263339274074e-06,0.574225025003497
2.00026437263789e-06,0.3172471654676011,2.00026437263789e-06,0.6004983306249096,2.00026437263789e-06,0.5742267374341805
2.000265368002447e-06,0.3184416029369634,2.000265368002447e-06,0.6005002068422496,2.000265368002447e-06,0.5742283887896416
2.000266323184712e-06,0.3195878216546413,2.000266323184712e-06,0.6005020073177733,2.000266323184712e-06,0.5742299682796858
2.000267237038687e-06,0.3206844464241897,2.000267237038687e-06,0.6005037298913284,2.000267237038687e-06,0.5742314829717572
2.000268109354097e-06,0.3217312249165264,2.000268109354097e-06,0.6005053741665575,2.000268109354097e-06,0.5742329222974355
2.000268940782556e-06,0.3227289390674064,2.000268940782556e-06,0.6005069413717229,2.000268940782556e-06,0.5742342992123812
2.00026973271725e-06,0.3236792607003163,2.00026973271725e-06,0.6005084341329192,2.00026973271725e-06,0.5742356032346921
2.000270487161149e-06,0.3245845933791562,2.000270487161149e-06,0.6005098562256531,2.000270487161149e-06,0.5742368514948204
2.000271206683633e-06,0.3254480203594193,2.000271206683633e-06,0.600511212493091,2.000271206683633e-06,0.5742380343194092
2.000271894392968e-06,0.326273271561531,2.000271894392968e-06,0.6005125087941766,2.000271894392968e-06,0.5742391706778661
2.000272553856396e-06,0.3270646276753685,2.000272553856396e-06,0.6005137518529988,2.000272553856396e-06,0.5742402536939878
2.000273189089071e-06,0.3278269068855607,2.000273189089071e-06,0.6005149492379417,2.000273189089071e-06,0.574241301352584
2.000273804525383e-06,0.3285654304599277,2.000273804525383e-06,0.6005161093076319,2.000273804525383e-06,0.5742423117692947
2.000274405055987e-06,0.3292860671841516,2.000274405055987e-06,0.6005172412807314,2.000274405055987e-06,0.574243299854719
2.000274996175447e-06,0.3299954105368438,2.000274996175447e-06,0.6005183555142493,2.000274996175447e-06,0.5742442703739969
2.000275584079842e-06,0.3307008958103153,2.000275584079842e-06,0.6005194636875109,2.000275584079842e-06,0.5742452354095655
2.000276175903454e-06,0.3314110841449492,2.000276175903454e-06,0.6005205792483193,2.000276175903454e-06,0.5742462068262844
2.000276780049336e-06,0.3321360592033694,2.000276780049336e-06,0.6005217180360489,2.000276780049336e-06,0.5742471966280168
2.000277406663678e-06,0.3328879964131732,2.000277406663678e-06,0.6005228991758084,2.000277406663678e-06,0.5742482242270386
2.000278068330855e-06,0.3336819970257054,2.000278068330855e-06,0.6005241463885789,2.000278068330855e-06,0.5742493066288118
2.000278768073141e-06,0.3345216877699084,2.000278768073141e-06,0.6005254653712109,2.000278768073141e-06,0.5742504525121018
2.000279520116484e-06,0.3354241397803272,2.000279520116484e-06,0.6005268829389696,2.000279520116484e-06,0.5742516808942912
2.000280338861403e-06,0.3364066336842693,2.000280338861403e-06,0.6005284262361876,2.000280338861403e-06,0.5742530192543708
2.000281241926855e-06,0.3374903122255608,2.000281241926855e-06,0.6005301284737984,2.000281241926855e-06,0.574254491645665
2.000282253554972e-06,0.3387042659667614,2.000282253554972e-06,0.6005320353471282,2.000282253554972e-06,0.5742561416041305
2.000283403927328e-06,0.3400847127932514,2.000283403927328e-06,0.6005342037470767,2.000283403927328e-06,0.5742580128006912
2.000284732843671e-06,0.3416794124051764,2.000284732843671e-06,0.6005367086943717,2.000284732843671e-06,0.574260173771401
2.000286292926682e-06,0.3435515120179595,2.000286292926682e-06,0.6005396493803844,2.000286292926682e-06,0.5742627030372186
2.000288134387174e-06,0.3457612646091346,2.000288134387174e-06,0.6005431204502242,2.000288134387174e-06,0.5742656846101025
2.000290321665633e-06,0.3483859987600657,2.000290321665633e-06,0.600547243371286,2.000290321665633e-06,0.5742692129956012
2.000292940755919e-06,0.3515289071032108,2.000292940755919e-06,0.6005521802380945,2.000292940755919e-06,0.5742734275144716
2.000296094766082e-06,0.3553137192987139,2.000296094766082e-06,0.6005581254046438,2.000296094766082e-06,0.5742785240449119
2.000299877082339e-06,0.3598524988071978,2.000299877082339e-06,0.6005652548996998,2.000299877082339e-06,0.5742845387183316
2.000302808964413e-06,0.3633707572960019,2.000302808964413e-06,0.6005707813647341,2.000302808964413e-06,0.574289186779846
2.000305531638375e-06,0.3666379660504195,2.000305531638375e-06,0.6005759134819011,2.000305531638375e-06,0.5742934796033928
2.000308042337157e-06,0.3696508045881338,2.000308042337157e-06,0.6005806460354119,2.000308042337157e-06,0.5742974093935203
2.000310264052194e-06,0.3723168626332412,2.000310264052194e-06,0.6005848338676207,2.000310264052194e-06,0.5743008783767378
2.000312303626434e-06,0.3747643517206566,2.000312303626434e-06,0.600588678372651,2.000312303626434e-06,0.574304037307803
2.000314156382824e-06,0.3769876593883876,2.000314156382824e-06,0.6005921707344773,2.000314156382824e-06,0.5743069026905074
2.00031584515729e-06,0.3790141887477491,2.00031584515729e-06,0.6005953539977927,2.00031584515729e-06,0.574309494106219
2.000317394162981e-06,0.3808729955772153,2.000317394162981e-06,0.600598273803288,2.000317394162981e-06,0.5743118687802448
2.000318817050225e-06,0.382580460269515,2.000318817050225e-06,0.6006009558812156,2.000318817050225e-06,0.5743140340021861
2.000320129786164e-06,0.3841557433965204,2.000320129786164e-06,0.6006034303289185,2.000320129786164e-06,0.5743160304937777
2.0003213464163e-06,0.3856156995596453,2.0003213464163e-06,0.6006057236215332,2.0003213464163e-06,0.5743178678845965
2.000322478502687e-06,0.3869742032241262,2.000322478502687e-06,0.6006078575530075,2.000322478502687e-06,0.5743195771264129
2.000323537408856e-06,0.3882448906276911,2.000323537408856e-06,0.6006098535430867,2.000323537408856e-06,0.5743211654239104
2.000324532801057e-06,0.3894393612680495,2.000324532801057e-06,0.6006117298122085,2.000324532801057e-06,0.5743226580523397
