/PHI_1 (pulse_width=5e-07) X,/PHI_1 (pulse_width=5e-07) Y,/VIN (pulse_width=5e-07) X,/VIN (pulse_width=5e-07) Y,/SH_OUT (pulse_width=5e-07) X,/SH_OUT (pulse_width=5e-07) Y
0,0,0,0.6,0,0.5999999969904894
2.575541395998197e-11,0,2.575541395998197e-11,0.6000226232801872,2.575541395998197e-11,0.6000000585512967
3.02212071652228e-11,0,3.02212071652228e-11,0.6000265459851779,3.02212071652228e-11,0.6000000697085915
3.826487180513339e-11,0,3.826487180513339e-11,0.6000336114541693,3.826487180513339e-11,0.6000000913392736
4.527581563089561e-11,0,4.527581563089561e-11,0.6000397697922389,4.527581563089561e-11,0.6000001128953429
5.867304475658769e-11,0,5.867304475658769e-11,0.600051537774998,5.867304475658769e-11,0.600000161213823
7.828361392866889e-11,0,7.828361392866889e-11,0.6000687634891551,7.828361392866889e-11,0.6000002486608066
1.085022684692623e-10,0,1.085022684692623e-10,0.6000953072318932,1.085022684692623e-10,0.6000004223333977
1.613447197720029e-10,0,1.613447197720029e-10,0.6001417234751003,1.613447197720029e-10,0.600000839121248
2.62496523901014e-10,0,2.62496523901014e-10,0.6002305741337669,2.62496523901014e-10,0.6000020367564418
4.636322006811718e-10,0,4.636322006811718e-10,0.6004072495356995,4.636322006811718e-10,0.6000059662822035
8.659035542414873e-10,0,8.659035542414873e-10,0.6007606002183127,8.659035542414873e-10,0.6000199091186746
1.670446261362118e-09,0,1.670446261362118e-09,0.6014673006696042,1.670446261362118e-09,0.6000713770180065
3.279531675603381e-09,0,3.279531675603381e-09,0.6028806944850365,3.279531675603381e-09,0.600262927231163
5.524793686066738e-09,0,5.524793686066738e-09,0.6048528667793907,5.524793686066738e-09,0.6007097962035486
8.244079298011261e-09,0,8.244079298011261e-09,0.6072413352879419,8.244079298011261e-09,0.6014955261194487
1.13841018426375e-08,0,1.13841018426375e-08,0.609999210405184,1.13841018426375e-08,0.6026837742663511
1.497098229230448e-08,0,1.497098229230448e-08,0.6131492979403035,1.497098229230448e-08,0.6043425885514074
1.897793635436018e-08,0,1.897793635436018e-08,0.616667871785699,1.897793635436018e-08,0.6064984702624684
2.345387755085948e-08,0,2.345387755085948e-08,0.6205975873613137,2.345387755085948e-08,0.6091991881420279
2.845006053051871e-08,0,2.845006053051871e-08,0.6249830042323667,2.845006053051871e-08,0.6124883953737037
3.405883163855781e-08,0,3.405883163855781e-08,0.6299045185959073,3.405883163855781e-08,0.6164332351883044
4.039302820012182e-08,0,4.039302820012182e-08,0.6354601287603344,4.039302820012182e-08,0.621115798044875
4.761426134646609e-08,0,4.761426134646609e-08,0.6417899959455845,4.761426134646609e-08,0.6266561600659676
5.593924854783463e-08,0,5.593924854783463e-08,0.6490815327420344,5.593924854783463e-08,0.6332212763408721
6.5676329828731e-08,0,6.5676329828731e-08,0.6576005407229281,6.5676329828731e-08,0.6410577957879449
7.727315904420001e-08,0,7.727315904420001e-08,0.6677312342192842,7.727315904420001e-08,0.6505372288297236
9.141602278020082e-08,0,9.141602278020082e-08,0.6800593678969458,9.141602278020082e-08,0.662248947026561
1.092563099513416e-07,0,1.092563099513416e-07,0.695560886733037,1.092563099513416e-07,0.6772116202018786
1.314662752108088e-07,0,1.314662752108088e-07,0.714766953686892,1.314662752108088e-07,0.6961039967307128
1.586542590741876e-07,0,1.586542590741876e-07,0.7381105469166366,1.586542590741876e-07,0.7195824024812788
1.912608179891765e-07,0,1.912608179891765e-07,0.7658147895569586,1.912608179891765e-07,0.748075586072189
2.337635505932932e-07,0,2.337635505932932e-07,0.8013507160268356,2.337635505932932e-07,0.7852314345853366
2.749450754027476e-07,0,2.749450754027476e-07,0.8350399748372765,2.749450754027476e-07,0.8206506681556853
3.11342809664233e-07,0,3.11342809664233e-07,0.8641086437900006,3.11342809664233e-07,0.851121829865346
3.474361676996265e-07,0,3.474361676996265e-07,0.8921941050399158,3.474361676996265e-07,0.8804237059723116
3.92633380996805e-07,0,3.92633380996805e-07,0.9262043302687526,3.92633380996805e-07,0.9157366768042626
4.571355322765489e-07,0,4.571355322765489e-07,0.9722332485956171,4.571355322765489e-07,0.9633038149681068
5.594351438217385e-07,0,5.594351438217385e-07,1.038279207726041,5.594351438217385e-07,1.031295741912655
7.345089356423831e-07,0,7.345089356423831e-07,1.127841977781794,7.345089356423831e-07,1.123473417320846
9.345089356423831e-07,0,9.345089356423831e-07,1.187716937605279,9.345089356423831e-07,1.185933713495655
1.134508935642383e-06,0,1.134508935642383e-06,1.19756599931571,1.134508935642383e-06,1.198188529552267
1.291464685369467e-06,0,1.291464685369467e-06,1.169562960806116,1.291464685369467e-06,1.172099522803278
1.464270217298576e-06,0,1.464270217298576e-06,1.104209528547984,1.464270217298576e-06,1.108986055103071
1.632589245757417e-06,0,1.632589245757417e-06,1.009646180156777,1.632589245757417e-06,1.016972815851002
1.792308987729819e-06,0,1.792308987729819e-06,0.8969214881605994,1.792308987729819e-06,0.9074929406489642
1.896154493864909e-06,0,1.896154493864909e-06,0.8145373532841056,1.896154493864909e-06,0.8280907549646696
1.957663524968307e-06,0,1.957663524968307e-06,0.7632793086450542,1.957663524968307e-06,0.7790665154484482
2e-06,0,2e-06,0.7272042659532328,2e-06,0.744549346585835
2.000000402104692e-06,0.0004825256303732112,2.000000402104692e-06,0.7272039207777499,2.000000402104692e-06,0.744551834988985
2.000000445885388e-06,0.0005350624652207341,2.000000445885388e-06,0.7272038831954379,2.000000445885388e-06,0.7445521155330012
2.00000052386973e-06,0.0006286436764213215,2.00000052386973e-06,0.7272038162519625,2.00000052386973e-06,0.7445526120412532
2.000000586300615e-06,0.0007035607377047599,2.000000586300615e-06,0.7272037626599167,2.000000586300615e-06,0.7445529903611766
2.000000651148754e-06,0.0007813785049900915,2.000000651148754e-06,0.7272037069928446,2.000000651148754e-06,0.7445533454314971
2.000000715982128e-06,0.0008591785531931994,2.000000715982128e-06,0.727203651338447,2.000000715982128e-06,0.7445536628109374
2.000000779599385e-06,0.0009355192620534167,2.000000779599385e-06,0.727203596727989,2.000000779599385e-06,0.7445539452093937
2.000000854262324e-06,0.001025114788689226,2.000000854262324e-06,0.7272035326356729,2.000000854262324e-06,0.7445542473701309
2.000000953223718e-06,0.001143868461966023,2.000000953223718e-06,0.7272034476850233,2.000000953223718e-06,0.7445546043305146
2.000001046319958e-06,0.001255583950103957,2.000001046319958e-06,0.7272033677691496,2.000001046319958e-06,0.7445548901872998
2.000001158568539e-06,0.001390282247135208,2.000001158568539e-06,0.7272032714124793,2.000001158568539e-06,0.7445551622253388
2.000001278852348e-06,0.001534622817921615,2.000001278852348e-06,0.7272031681581874,2.000001278852348e-06,0.7445553879323278
2.000001393912092e-06,0.001672694511079106,2.000001393912092e-06,0.7272030693883447,2.000001393912092e-06,0.7445555696991855
2.000001548181829e-06,0.001857818194632942,2.000001548181829e-06,0.7272029369597676,2.000001548181829e-06,0.7445557652836963
2.000001678886231e-06,0.0020146634777525,2.000001678886231e-06,0.7272028247601923,2.000001678886231e-06,0.7445558796093252
2.000001882688713e-06,0.002259226455613165,2.000001882688713e-06,0.7272026498115863,2.000001882688713e-06,0.7445559917561591
2.000002033896352e-06,0.002440675622319792,2.000002033896352e-06,0.7272025200115617,2.000002033896352e-06,0.7445560487628593
2.000002281813908e-06,0.002738176690289908,2.000002281813908e-06,0.7272023071935636,2.000002281813908e-06,0.7445560960980216
2.000002469395607e-06,0.002963274728033486,2.000002469395607e-06,0.7272021461692103,2.000002469395607e-06,0.7445560909660587
2.000002695301301e-06,0.003234361561434454,2.000002695301301e-06,0.7272019522466628,2.000002695301301e-06,0.7445560716196162
2.000002936310471e-06,0.003523572564806236,2.000002936310471e-06,0.7272017453589361,2.000002936310471e-06,0.7445560357854184
2.000003163425831e-06,0.003796110997363023,2.000003163425831e-06,0.7272015503979551,2.000003163425831e-06,0.7445559792933254
2.000003451149947e-06,0.004141379936636283,2.000003451149947e-06,0.7272013034090223,2.000003451149947e-06,0.7445559044296167
2.000003745765513e-06,0.004494918616291122,2.000003745765513e-06,0.7272010505042881,2.000003745765513e-06,0.7445558212250069
2.000004034976702e-06,0.004841972042226011,2.000004034976702e-06,0.7272008022387726,2.000004034976702e-06,0.744555726647378
2.000004424482767e-06,0.005309379320675671,2.000004424482767e-06,0.7272004678777988,2.000004424482767e-06,0.7445556047305905
2.000004896517741e-06,0.005875821289485875,2.000004896517741e-06,0.7272000626720546,2.000004896517741e-06,0.7445554485987158
2.000005335405782e-06,0.006402486938545933,2.000005335405782e-06,0.7271996859203502,2.000005335405782e-06,0.7445553016289296
2.000005819264265e-06,0.006983117118000746,2.000005819264265e-06,0.7271992705649114,2.000005819264265e-06,0.7445551444690447
2.000006360521509e-06,0.007632625811391298,2.000006360521509e-06,0.7271988059369576,2.000006360521509e-06,0.7445549618087991
2.000006982910955e-06,0.008379493146316299,2.000006982910955e-06,0.7271982716631145,2.000006982910955e-06,0.7445547611203107
2.000007834532544e-06,0.009401439052612705,2.000007834532544e-06,0.7271975406107988,2.000007834532544e-06,0.744554481338756
2.000008704235949e-06,0.01044508313916931,2.000008704235949e-06,0.7271967940364156,2.000008704235949e-06,0.7445542036314987
2.000009648252331e-06,0.01157790279766163,2.000009648252331e-06,0.7271959836697471,2.000009648252331e-06,0.7445539027291661
2.00001067816115e-06,0.01281379337963388,2.00001067816115e-06,0.7271950995706409,2.00001067816115e-06,0.744553579765728
2.000011787417278e-06,0.01414490073328852,2.000011787417278e-06,0.7271941473575256,2.000011787417278e-06,0.7445532374825817
2.000013032402455e-06,0.01563888294580686,2.000013032402455e-06,0.7271930786308115,2.000013032402455e-06,0.7445528568564219
2.000014472950379e-06,0.01736754045479361,2.000014472950379e-06,0.7271918420275695,2.000014472950379e-06,0.7445524276423979
2.00001619008644e-06,0.01942810372774123,2.00001619008644e-06,0.7271903679932462,2.00001619008644e-06,0.7445519217762965
2.000018244147265e-06,0.02189297671780334,2.000018244147265e-06,0.7271886047328731,2.000018244147265e-06,0.7445513365032491
2.000020784603899e-06,0.02494152467870868,2.000020784603899e-06,0.7271864239358269,2.000020784603899e-06,0.7445506282049581
2.000024002718827e-06,0.02880326259281445,2.000024002718827e-06,0.7271836614159505,2.000024002718827e-06,0.7445497704456611
2.00002819304123e-06,0.03383164947632678,2.00002819304123e-06,0.7271800643217505,2.00002819304123e-06,0.7445487015725812
2.000033776779533e-06,0.04053213543962118,2.000033776779533e-06,0.7271752710715189,2.000033776779533e-06,0.7445473778846758
2.000041461009869e-06,0.04975321184348783,2.000041461009869e-06,0.7271686746813537,2.000041461009869e-06,0.7445457220985778
2.000051572527573e-06,0.06188703308719195,2.000051572527573e-06,0.7271599946052181,2.000051572527573e-06,0.7445438516238799
2.000065760076773e-06,0.07891209212817178,2.000065760076773e-06,0.7271478154758466,2.000065760076773e-06,0.7445417951330782
2.000082871715151e-06,0.09944605818145334,2.000082871715151e-06,0.7271331261246456,2.000082871715151e-06,0.7445402114129813
2.000107416398922e-06,0.1288996787059406,2.000107416398922e-06,0.7271120557948731,2.000107416398922e-06,0.7445396139968076
2.000136327144586e-06,0.1635925735036446,2.000136327144586e-06,0.727087237218364,2.000136327144586e-06,0.7445413621680024
2.000180514336066e-06,0.2166172032793154,2.000180514336066e-06,0.7270493040594506,2.000180514336066e-06,0.7445484870574686
2.000222193518067e-06,0.2666322216807832,2.000222193518067e-06,0.7270135234517259,2.000222193518067e-06,0.7445588527428094
2.000262138982678e-06,0.3145667792140742,2.000262138982678e-06,0.7269792307562364,2.000262138982678e-06,0.74457045816828
2.000292395437895e-06,0.3508745254736592,2.000292395437895e-06,0.7269532556684243,2.000292395437895e-06,0.744579505358575
2.000316257612529e-06,0.3795091350349716,2.000316257612529e-06,0.7269327698781075,2.000316257612529e-06,0.7445865150228618
2.000336105531629e-06,0.4033266379553405,2.000336105531629e-06,0.7269157302272335,2.000336105531629e-06,0.7445919585225336
2.000355169712516e-06,0.4262036550197066,2.000355169712516e-06,0.7268993633231067,2.000355169712516e-06,0.7445968756946462
2.000368762009675e-06,0.4425144116097784,2.000368762009675e-06,0.726887694058293,2.000368762009675e-06,0.7445999835130745
2.000382738907424e-06,0.4592866889089917,2.000382738907424e-06,0.7268756945536189,2.000382738907424e-06,0.7446028314708125
2.000394598024236e-06,0.4735176290835378,2.000394598024236e-06,0.7268655131734286,2.000394598024236e-06,0.7446047589759012
2.000405613610703e-06,0.4867363328431976,2.000405613610703e-06,0.7268560559531423,2.000405613610703e-06,0.7446060869080432
2.000417403132767e-06,0.5008837593204839,2.000417403132767e-06,0.7268459342487567,2.000417403132767e-06,0.7446067737322658
2.000427837022233e-06,0.5134044266796318,2.000427837022233e-06,0.7268369763693967,2.000427837022233e-06,0.7446066109915345
2.000440450094907e-06,0.528540113888509,2.000440450094907e-06,0.7268261475412789,2.000440450094907e-06,0.7446051357518805
2.000451722438408e-06,0.5420669260900861,2.000451722438408e-06,0.7268164697462671,2.000451722438408e-06,0.7446022629503446
2.000463110195253e-06,0.5557322343041122,2.000463110195253e-06,0.7268066928288334,2.000463110195253e-06,0.7445973443021493
2.000474152562218e-06,0.5689830746613338,2.000474152562218e-06,0.7267972124109745,2.000474152562218e-06,0.74459023906653
2.000490838254817e-06,0.5890059057803921,2.000490838254817e-06,0.7267828868562459,2.000490838254817e-06,0.7445750637070336
2.000511946765028e-06,0.6143361180331505,2.000511946765028e-06,0.7267647639689288,2.000511946765028e-06,0.7445493848717332
2.000527159832938e-06,0.6325917995252003,2.000527159832938e-06,0.726751702587656,2.000527159832938e-06,0.7445274909464284
2.000545524217317e-06,0.6546290607805276,2.000545524217317e-06,0.7267359355180669,2.000545524217317e-06,0.7444993419643934
2.00055767038081e-06,0.6692044569724331,2.00055767038081e-06,0.72672550716254,2.00055767038081e-06,0.7444816625459938
2.000565181409154e-06,0.6782176909848292,2.000565181409154e-06,0.7267190583840821,2.000565181409154e-06,0.7444726175759977
2.000569942766058e-06,0.6839313192700283,2.000569942766058e-06,0.726714970395856,2.000569942766058e-06,0.7444690347928056
2.000574837259532e-06,0.6898047114387669,2.000574837259532e-06,0.7267107680933085,2.000574837259532e-06,0.7444680533209153
2.000578091519527e-06,0.6937098234325301,2.000578091519527e-06,0.7267079740549133,2.000578091519527e-06,0.7444686634862103
2.000582126982534e-06,0.6985523790411544,2.000582126982534e-06,0.7267045092882374,2.000582126982534e-06,0.7444699908668376
2.000585404109063e-06,0.7024849308757835,2.000585404109063e-06,0.7267016956106251,2.000585404109063e-06,0.7444712591135614
2.000590546834828e-06,0.7086562017939803,2.000590546834828e-06,0.7266972801596218,2.000590546834828e-06,0.7444733469093457
2.000596015619391e-06,0.715218743268984,2.000596015619391e-06,0.7266925847525738,2.000596015619391e-06,0.7444754949129645
2.000602284193073e-06,0.7227410316880764,2.000602284193073e-06,0.7266872026499618,2.000602284193073e-06,0.7444778661724593
2.000609069574247e-06,0.7308834890964717,2.000609069574247e-06,0.7266813768122244,2.000609069574247e-06,0.7444803224171198
2.000616274017535e-06,0.7395288210423293,2.000616274017535e-06,0.7266751911596648,2.000616274017535e-06,0.7444828616812623
2.000624752122115e-06,0.7497025465376036,2.000624752122115e-06,0.7266679119380476,2.000624752122115e-06,0.7444858271305184
2.000634565368727e-06,0.7614784424728567,2.000634565368727e-06,0.7266594863515526,2.000634565368727e-06,0.7444892711043303
2.000647086696315e-06,0.7765040355777955,2.000647086696315e-06,0.7266487355872766,2.000647086696315e-06,0.7444937320224899
2.000661146161633e-06,0.7933753939597025,2.000661146161633e-06,0.7266366641330714,2.000661146161633e-06,0.7444988232951923
2.000678892991924e-06,0.8146715903085482,2.000678892991924e-06,0.7266214266314132,2.000678892991924e-06,0.7445053712696356
2.000699253370177e-06,0.8391040442120173,2.000699253370177e-06,0.7266039450214203,2.000699253370177e-06,0.7445129960467002
2.000725569228693e-06,0.8706830744312433,2.000725569228693e-06,0.726581349814078,2.000725569228693e-06,0.7445229789090234
2.000753043194765e-06,0.9036518337186824,2.000753043194765e-06,0.7265577600370288,2.000753043194765e-06,0.7445334685209275
2.000796845363489e-06,0.9562144361871726,2.000796845363489e-06,0.7265201500674926,2.000796845363489e-06,0.7445502406660768
2.000833587936655e-06,1.000305523985991,2.000833587936655e-06,0.7264886012955181,2.000833587936655e-06,0.7445642836309604
2.000893722556282e-06,1.072467067538731,2.000893722556282e-06,0.7264369663050569,2.000893722556282e-06,0.7445871948122024
2.000949399877558e-06,1.139279853069995,2.000949399877558e-06,0.7263891577297447,2.000949399877558e-06,0.7446083095608691
2.001e-06,1.2,2.001e-06,0.7263457080762318,2.001e-06,0.7446274342134793
2.001004977466452e-06,1.2,2.001004977466452e-06,0.7263414339543978,2.001004977466452e-06,0.7446216835252708
2.001009617067143e-06,1.2,2.001009617067143e-06,0.72633744994991,2.001009617067143e-06,0.7446205448590943
2.00101245510022e-06,1.2,2.00101245510022e-06,0.7263350129406496,2.00101245510022e-06,0.7446212444018981
2.001015275346913e-06,1.2,2.001015275346913e-06,0.7263325912023361,2.001015275346913e-06,0.7446210058316758
2.001018700474014e-06,1.2,2.001018700474014e-06,0.7263296500519334,2.001018700474014e-06,0.744621104534376
2.00102292118919e-06,1.2,2.00102292118919e-06,0.7263260257271318,2.00102292118919e-06,0.7446210706671419
2.001030639536875e-06,1.2,2.001030639536875e-06,0.7263193979755707,2.001030639536875e-06,0.7446210862167899
2.001040000103223e-06,1.2,2.001040000103223e-06,0.7263113600278399,2.001040000103223e-06,0.7446210774654725
2.001052361718467e-06,1.2,2.001052361718467e-06,0.7263007450336485,2.001052361718467e-06,0.7446210787217343
2.00106920367959e-06,1.2,2.00106920367959e-06,0.7262862826726324,2.00106920367959e-06,0.7446210765191398
2.001090926024438e-06,1.2,2.001090926024438e-06,0.7262676293637729,2.001090926024438e-06,0.744621072127035
2.001119761525337e-06,1.2,2.001119761525337e-06,0.726242867682052,2.001119761525337e-06,0.7446210712504197
2.001157828435962e-06,1.2,2.001157828435962e-06,0.7262101784403059,2.001157828435962e-06,0.7446210628839495
2.001207876519582e-06,1.2,2.001207876519582e-06,0.7261671999957244,2.001207876519582e-06,0.7446210606233963
2.001274017911495e-06,1.2,2.001274017911495e-06,0.7261104004953072,2.001274017911495e-06,0.744621047785135
2.001361249352533e-06,1.2,2.001361249352533e-06,0.7260354879222481,2.001361249352533e-06,0.7446210414681366
2.001476351731956e-06,1.2,2.001476351731956e-06,0.7259366372134592,2.001476351731956e-06,0.7446210219519722
2.001628331839948e-06,1.2,2.001628331839948e-06,0.7258061101821707,2.001628331839948e-06,0.7446210077777162
2.001828947409631e-06,1.2,2.001828947409631e-06,0.7256338033962949,2.001828947409631e-06,0.7446209771674693
2.002093839817432e-06,1.2,2.002093839817432e-06,0.7254062732525732,2.002093839817432e-06,0.7446209488754074
2.00244363396345e-06,1.2,2.00244363396345e-06,0.7251057876114891,2.00244363396345e-06,0.7446208992130693
2.002905550982516e-06,1.2,2.002905550982516e-06,0.7247089341711686,2.002905550982516e-06,0.7446208460479853
2.003515586247947e-06,1.2,2.003515586247947e-06,0.7241847384006526,2.003515586247947e-06,0.7446207632938274
2.004321257900184e-06,1.2,2.004321257900184e-06,0.7234922829779677,2.004321257900184e-06,0.7446206665780374
2.00538533749415e-06,1.2,2.00538533749415e-06,0.7225774690044722,2.00538533749415e-06,0.7446205261602266
2.006790746161922e-06,1.2,2.006790746161922e-06,0.7213687509603136,2.006790746161922e-06,0.744620353310612
2.008647001044287e-06,1.2,2.008647001044287e-06,0.7197714971950782,2.008647001044287e-06,0.7446201122040049
2.011098766558129e-06,1.2,2.011098766558129e-06,0.7176604699865695,2.011098766558129e-06,0.744619806258536
